Circuit: * D:\temp\git\ulet_lab3\Draft1.asc

Warning: Multiple definitions of model "2scr375p" Type: BJT
Warning: Multiple definitions of model "bc857b" Type: BJT
Warning: Multiple definitions of model "bc847c" Type: BJT
Warning: Multiple definitions of model "bc847b" Type: BJT
Direct Newton iteration for .op point succeeded.
Semiconductor Device Operating Points:
                        --- Bipolar Transistors ---
Name:       q1          q2          q3
Model:    bc547c      bc547c      bc547c
Ib:       4.21e-07    4.21e-07    8.92e-07
Ic:       2.19e-04    2.19e-04    4.39e-04
Vbe:      5.78e-01    5.78e-01    5.98e-01
Vbc:     -7.81e+00   -7.81e+00   -4.43e+00
Vce:      8.39e+00    8.39e+00    5.02e+00
BetaDC:   5.21e+02    5.21e+02    4.92e+02
Gm:       8.37e-03    8.37e-03    1.67e-02
Rpi:      6.23e+04    6.23e+04    2.93e+04
Rx:       1.00e+00    1.00e+00    1.00e+00
Ro:       2.76e+05    2.76e+05    1.30e+05
Cbe:      3.32e-11    3.32e-11    3.83e-11
Cbc:      9.80e-13    9.80e-13    1.14e-12
Cjs:      0.00e+00    0.00e+00    0.00e+00
BetaAC:   5.21e+02    5.21e+02    4.91e+02
Cbx:      6.02e-13    6.02e-13    7.02e-13
Ft:       3.83e+07    3.83e+07    6.64e+07



Date: Wed Apr 26 16:35:58 2023
Total elapsed time: 0.086 seconds.

tnom = 27
temp = 27
method = trap
totiter = 8
traniter = 0
tranpoints = 0
accept = 0
rejected = 0
matrix size = 20
fillins = 0
solver = Normal
Avg thread counts: 4.0/0.0/4.0/4.0
Matrix Compiler1: 1.17 KB object code size
Matrix Compiler2: 1.58 KB object code size
